hour, t(sec), P1 (kW), P2 (kW), P3 (kW)
1, 0.00000, 1062.94, 932.734, 1022.16
2, 0.00000, 1002.22, 885.795, 961.298
3, 0.00000, 1016.14, 906.69, 980.365
4, 0.00000, 1035, 916.839, 1003.19
5, 0.00000, 1010.33, 913.144, 986.189
6, 0.00000, 1038.52, 937.918, 1026.2
7, 0.00000, 1048.28, 929.636, 1025.87
8, 0.00000, 1106.17, 947.783, 1042.37
9, 0.00000, 1108.34, 946.524, 1049.02
10, 0.00000, 1099.16, 932.048, 1043.53
11, 0.00000, 1111.06, 935.059, 1070.2
12, 0.00000, 1153.15, 955.961, 1077.27
13, 0.00000, 1105.44, 902.023, 1033.54
14, 0.00000, 1064.16, 865.678, 1002.55
15, 0.00000, 1046.33, 828.375, 983.429
16, 0.00000, 1049.35, 860.988, 1004.09
17, 0.00000, 1014.02, 809.346, 958.689
18, 0.00000, 960.71, 776.031, 924.217
19, 0.00000, 1048.65, 891.713, 1035.82
20, 0.00000, 1066.78, 900.262, 1057.13
21, 0.00000, 1025.41, 867.066, 1001.33
22, 0.00000, 1025.63, 861.434, 988.639
23, 0.00000, 965.727, 804.239, 938.372
24, 0.00000, 939.899, 783.296, 899.746
25, 0.00000, 873.053, 723.088, 822.138
26, 0.00000, 836.669, 712.064, 802.211
27, 0.00000, 878.183, 756.182, 839.322
28, 0.00000, 839.289, 724.348, 800.317
29, 0.00000, 841.838, 738.611, 820.453
30, 0.00000, 838.039, 745.771, 824.001
31, 0.00000, 913.075, 795.839, 877.922
32, 0.00000, 950.995, 804.978, 901.569
33, 0.00000, 1003.78, 844.375, 969.987
34, 0.00000, 1041.41, 866.992, 1002.41
35, 0.00000, 1035.43, 862.35, 1002.99
36, 0.00000, 1046.32, 863.985, 1005.17
37, 0.00000, 1041.17, 837.398, 983.805
38, 0.00000, 1073.37, 875.763, 1032.27
39, 0.00000, 1088.48, 865.588, 1033.27
40, 0.00000, 1071.59, 838.769, 996.308
41, 0.00000, 995.487, 785.829, 948.099
42, 0.00000, 1022.75, 804.393, 960.591
43, 0.00000, 1040.15, 835.249, 989.316
44, 0.00000, 1003.01, 808.634, 953.28
45, 0.00000, 1028.08, 832.579, 982.668
46, 0.00000, 947.013, 770.353, 911.152
47, 0.00000, 953.801, 778.174, 891.847
48, 0.00000, 924.404, 756.784, 873.904
49, 0.00000, 863.687, 709.89, 812.599
50, 0.00000, 833.783, 690.086, 787.068
51, 0.00000, 816.332, 676.55, 767.602
52, 0.00000, 794.014, 666.012, 753.712
53, 0.00000, 759.856, 641.824, 731.484
54, 0.00000, 780.366, 651.81, 740.201
55, 0.00000, 791.825, 680.583, 777.242
56, 0.00000, 868.406, 708.727, 805.647
57, 0.00000, 920.131, 739.195, 873.085
58, 0.00000, 976.396, 770.768, 919.386
59, 0.00000, 1028.21, 825.246, 955.623
60, 0.00000, 1029.58, 825.853, 973.497
61, 0.00000, 1072.97, 855.1, 998.287
62, 0.00000, 1063.73, 824.585, 996.289
63, 0.00000, 1071.27, 824.978, 984.935
64, 0.00000, 1067.34, 815.312, 975
65, 0.00000, 1072.35, 811.508, 985.963
66, 0.00000, 1029.23, 787.342, 955.187
67, 0.00000, 1069.91, 850.167, 1002.54
68, 0.00000, 1056.26, 844.893, 985.956
69, 0.00000, 1062.38, 855.624, 987.243
70, 0.00000, 984.827, 782.951, 899.329
71, 0.00000, 985.204, 792.792, 912.836
72, 0.00000, 927.391, 745.27, 863.194
73, 0.00000, 877.034, 708.302, 831.702
74, 0.00000, 867.952, 706.996, 821.763
75, 0.00000, 852.47, 696.185, 796.079
76, 0.00000, 816.266, 664.263, 768.234
77, 0.00000, 822.402, 676.483, 786.781
78, 0.00000, 838.623, 683.944, 791.121
79, 0.00000, 857.123, 699.287, 809.114
80, 0.00000, 866.922, 708.78, 821.843
81, 0.00000, 883.439, 702.609, 825.499
82, 0.00000, 908.005, 727.171, 860.883
83, 0.00000, 987.664, 778.364, 931.722
84, 0.00000, 980.55, 776.467, 932.202
85, 0.00000, 969.312, 749.153, 904.609
86, 0.00000, 948.75, 754.916, 900.919
87, 0.00000, 943.322, 760.888, 893.568
88, 0.00000, 985.953, 793.842, 933.566
89, 0.00000, 962.958, 789.465, 945.751
90, 0.00000, 997.22, 827.689, 954.297
91, 0.00000, 1030.64, 852.591, 991.943
92, 0.00000, 1030.29, 858.645, 990.698
93, 0.00000, 1042.9, 866.118, 986.561
94, 0.00000, 1028.73, 864.005, 985.041
95, 0.00000, 983.379, 846.105, 947.374
96, 0.00000, 998.296, 841.287, 947.102
97, 0.00000, 970.436, 813.894, 917.44
98, 0.00000, 904.234, 755.013, 867.307
99, 0.00000, 923.128, 796.586, 884.93
100, 0.00000, 889.15, 764.95, 848.154
101, 0.00000, 898.101, 782.228, 872.018
102, 0.00000, 966.845, 838.227, 934.259
103, 0.00000, 998.076, 874.245, 975.979
104, 0.00000, 1114.46, 976.59, 1072.25
105, 0.00000, 1104.63, 949.421, 1055.66
106, 0.00000, 1158.05, 987.443, 1103.73
107, 0.00000, 1185.29, 1020.83, 1153.9
108, 0.00000, 1183.97, 1019.2, 1129.91
109, 0.00000, 1217.07, 1043.96, 1180.74
110, 0.00000, 1214.08, 1034.53, 1162.55
111, 0.00000, 1249.47, 1043.33, 1180.82
112, 0.00000, 1286.44, 1074.5, 1215.11
113, 0.00000, 1271.75, 1078.21, 1230.69
114, 0.00000, 1265.62, 1077.39, 1223.89
115, 0.00000, 1269.1, 1101.32, 1233.92
116, 0.00000, 1232.75, 1069.26, 1202.28
117, 0.00000, 1183.19, 1031.66, 1115.93
118, 0.00000, 1160.22, 1014.53, 1122.93
119, 0.00000, 1146.27, 991.665, 1079.01
120, 0.00000, 1092.02, 947.963, 1045.62
121, 0.00000, 1066.96, 921.183, 1012.12
122, 0.00000, 996.455, 865.751, 949.903
123, 0.00000, 988.837, 865.588, 942.491
124, 0.00000, 939.416, 823.719, 900.049
125, 0.00000, 961.498, 828.424, 908.458
126, 0.00000, 966.633, 847.651, 934.053
127, 0.00000, 1013.13, 899.398, 977.298
128, 0.00000, 1022.78, 886.216, 996.473
129, 0.00000, 1158.06, 993.362, 1102.54
130, 0.00000, 1127.97, 976.854, 1092.85
131, 0.00000, 1216.48, 1036.45, 1167.57
132, 0.00000, 1214.79, 1018.05, 1154.55
133, 0.00000, 1217.78, 1041.5, 1172.79
134, 0.00000, 1240.27, 1022.99, 1169.34
135, 0.00000, 1234.2, 1033.02, 1179.96
136, 0.00000, 1159.84, 974.376, 1102.13
137, 0.00000, 1205.72, 996.392, 1127.17
138, 0.00000, 1240.24, 1023.85, 1182.36
139, 0.00000, 1207.11, 996.571, 1152.02
140, 0.00000, 1183.39, 988.952, 1127.68
141, 0.00000, 1219.17, 1008.84, 1154.19
142, 0.00000, 1164.23, 947.931, 1088.35
143, 0.00000, 1123.17, 941.109, 1061.2
144, 0.00000, 1059.15, 884.039, 1011.25
145, 0.00000, 1006.79, 838.073, 959.955
146, 0.00000, 992.183, 825.605, 932.52
147, 0.00000, 926.554, 769.143, 882.803
148, 0.00000, 964.963, 828.632, 931.451
149, 0.00000, 959.965, 817.433, 920.56
150, 0.00000, 992.207, 852.003, 967.603
151, 0.00000, 1096.58, 938.38, 1055.71
152, 0.00000, 1160.33, 976.048, 1094.28
153, 0.00000, 1215.17, 1018.97, 1138.36
154, 0.00000, 1260.94, 1030.04, 1172.95
155, 0.00000, 1243.28, 1025.37, 1156.41
156, 0.00000, 1248.27, 1022.42, 1165.08
157, 0.00000, 1245.2, 1008.35, 1156.06
158, 0.00000, 1246.06, 1004.99, 1169.92
159, 0.00000, 1224.56, 986.226, 1146.88
160, 0.00000, 1220.68, 969.077, 1140.34
161, 0.00000, 1165.57, 924.755, 1102.2
162, 0.00000, 1221.99, 971.858, 1150.07
163, 0.00000, 1252.72, 1011.11, 1173.88
164, 0.00000, 1178.76, 954.706, 1121.88
165, 0.00000, 1212.28, 975.982, 1140.85
166, 0.00000, 1144.03, 921.217, 1074.79
167, 0.00000, 1095.99, 893.105, 1040.02
168, 0.00000, 1023.33, 852.592, 983.573
169, 0.00000, 984.911, 809.381, 930.486
170, 0.00000, 968.075, 811.445, 918.658
171, 0.00000, 967.328, 801.625, 903.598
172, 0.00000, 949.116, 796.444, 906.896
173, 0.00000, 913.461, 772.671, 869.764
174, 0.00000, 972.728, 817.844, 920.349
175, 0.00000, 1047.37, 892.628, 999.52
176, 0.00000, 1109.63, 928.027, 1061.66
177, 0.00000, 1201.75, 986.013, 1145.34
178, 0.00000, 1209.8, 979.934, 1132.92
179, 0.00000, 1258.34, 1017.18, 1197.13
180, 0.00000, 1287.5, 1044.53, 1221.67
181, 0.00000, 1219.85, 994.447, 1178.59
182, 0.00000, 1275.12, 1009.76, 1216.36
183, 0.00000, 1249.75, 991.757, 1182.68
184, 0.00000, 1234.15, 969.146, 1159.49
185, 0.00000, 1222.55, 958.219, 1147.96
186, 0.00000, 1234.91, 977.547, 1154.8
187, 0.00000, 1265.89, 1042.71, 1214.47
188, 0.00000, 1259.94, 1008.21, 1190.09
189, 0.00000, 1261.13, 1034.33, 1185.46
190, 0.00000, 1226.78, 997.869, 1150.82
191, 0.00000, 1226.47, 1009.61, 1161.76
192, 0.00000, 1161.42, 954.492, 1102.98
193, 0.00000, 1067.23, 883.227, 1026.69
194, 0.00000, 1073.94, 882.279, 1021.2
195, 0.00000, 1047.1, 866.334, 984.496
196, 0.00000, 1062.88, 879.923, 1004.24
197, 0.00000, 1070.16, 910.305, 1027.3
198, 0.00000, 1098.48, 926.978, 1053.13
199, 0.00000, 1200.34, 1005.43, 1148.82
200, 0.00000, 1241.34, 1047.27, 1178.58
201, 0.00000, 1267, 1066.35, 1214.43
202, 0.00000, 1281.05, 1058.95, 1206.81
203, 0.00000, 1289.16, 1053.25, 1217.68
204, 0.00000, 1250.95, 1024.92, 1196.59
205, 0.00000, 1253.23, 1017.78, 1166.54
206, 0.00000, 1238.37, 1013.85, 1164.7
207, 0.00000, 1143.62, 943.884, 1096.35
208, 0.00000, 1095.33, 899.732, 1045.9
209, 0.00000, 1060.48, 865.135, 1014.96
210, 0.00000, 1047.12, 849.147, 1005.87
211, 0.00000, 1085.43, 908.318, 1045.5
212, 0.00000, 1034.15, 858.841, 1017.86
213, 0.00000, 1012.34, 850.012, 980.41
214, 0.00000, 970.4, 812.365, 961.673
215, 0.00000, 973.751, 805.074, 937.013
216, 0.00000, 967.595, 806.667, 907.359
217, 0.00000, 923.138, 760.994, 880.282
218, 0.00000, 892.982, 744.277, 843.307
219, 0.00000, 870.767, 724.577, 825.058
220, 0.00000, 861.368, 721.582, 819.826
221, 0.00000, 858.292, 708.033, 816.454
222, 0.00000, 869.72, 715.175, 833.906
223, 0.00000, 892.497, 743.979, 857.728
224, 0.00000, 942.635, 771.511, 894.567
225, 0.00000, 943.781, 753.47, 885.873
226, 0.00000, 1011.77, 805.796, 943.626
227, 0.00000, 1043.57, 836.975, 987.89
228, 0.00000, 1068.79, 842.699, 985.128
229, 0.00000, 1112.94, 889.907, 1034.56
230, 0.00000, 1095.12, 874.455, 1021.04
231, 0.00000, 1120.68, 914.784, 1046.8
232, 0.00000, 1146.45, 908.343, 1066.51
233, 0.00000, 1130.35, 926.799, 1068.7
234, 0.00000, 1166.97, 968.477, 1123.5
235, 0.00000, 1165.98, 975.805, 1136.86
236, 0.00000, 1149.81, 942.517, 1100.19
237, 0.00000, 1164.24, 971.822, 1103.83
238, 0.00000, 1121.86, 953.952, 1066.64
239, 0.00000, 1126.23, 939.524, 1053.26
240, 0.00000, 1077.83, 908.75, 1018
241, 0.00000, 1012.81, 872.946, 961.337
242, 0.00000, 998.43, 854.788, 958.58
243, 0.00000, 988.304, 863.435, 967.781
244, 0.00000, 993.499, 860.312, 957.766
245, 0.00000, 981.116, 844.158, 935.775
246, 0.00000, 1030.77, 899.296, 993.392
247, 0.00000, 1056.02, 903.82, 1008.13
248, 0.00000, 1129.81, 965.188, 1065.41
249, 0.00000, 1176.56, 986.108, 1114.09
250, 0.00000, 1209.43, 1020.3, 1137.91
251, 0.00000, 1239.25, 1019.55, 1155.42
252, 0.00000, 1216.19, 1001.11, 1149.39
253, 0.00000, 1169.39, 939.917, 1089.88
254, 0.00000, 1203.55, 963.226, 1122.39
255, 0.00000, 1178.98, 942.52, 1102.22
256, 0.00000, 1144.58, 900.453, 1054.84
257, 0.00000, 1128.12, 887.487, 1049.62
258, 0.00000, 1138.75, 904.015, 1056.97
259, 0.00000, 1205.93, 982.761, 1136.38
260, 0.00000, 1221.86, 981.94, 1132.65
261, 0.00000, 1213.43, 1008.73, 1135.55
262, 0.00000, 1256.55, 1047.63, 1171.75
263, 0.00000, 1193.32, 982.406, 1106.23
264, 0.00000, 1161.88, 977.49, 1085.8
265, 0.00000, 1083.21, 893.345, 1006.78
266, 0.00000, 1125.01, 942.311, 1052
267, 0.00000, 1077.14, 901.492, 1010.12
268, 0.00000, 1012.37, 853.292, 963.132
269, 0.00000, 1037.16, 872.132, 977.39
270, 0.00000, 1085.34, 919.759, 1043.98
271, 0.00000, 1148.96, 990.344, 1128.71
272, 0.00000, 1188.27, 1010.58, 1129.37
273, 0.00000, 1234.24, 1037.87, 1182.73
274, 0.00000, 1232.89, 1021.96, 1164.93
275, 0.00000, 1289.63, 1065.68, 1211.67
276, 0.00000, 1263.85, 1028.97, 1195.78
277, 0.00000, 1205.54, 981.968, 1143.49
278, 0.00000, 1220.41, 987.171, 1150.78
279, 0.00000, 1201.45, 970.394, 1130.26
280, 0.00000, 1210.58, 978.921, 1132.77
281, 0.00000, 1155.22, 923.734, 1074.14
282, 0.00000, 1158.87, 924.492, 1104.35
283, 0.00000, 1213.88, 991.928, 1148.53
284, 0.00000, 1191.27, 972.799, 1145.18
285, 0.00000, 1201.61, 974.777, 1130.42
286, 0.00000, 1149.23, 929.193, 1073.72
287, 0.00000, 1127.78, 910.67, 1055.66
288, 0.00000, 1097.5, 889.365, 1017.69
289, 0.00000, 1081.37, 876.521, 1005.36
290, 0.00000, 1064.61, 873.665, 999.452
291, 0.00000, 994.102, 816.302, 936.937
292, 0.00000, 964.125, 799.558, 915.342
293, 0.00000, 976.047, 806.086, 913.089
294, 0.00000, 962.142, 794.12, 921.997
295, 0.00000, 996.2, 851.201, 977.417
296, 0.00000, 1092.16, 929.084, 1047.87
297, 0.00000, 1110.54, 937.543, 1056.3
298, 0.00000, 1194.15, 1006.46, 1133.83
299, 0.00000, 1187.59, 1008.17, 1131.98
300, 0.00000, 1204.87, 1014.73, 1144.83
301, 0.00000, 1191.2, 999.21, 1140.99
302, 0.00000, 1173.95, 973.543, 1109.32
303, 0.00000, 1157.98, 972.348, 1112.22
304, 0.00000, 1113.68, 918.256, 1068
305, 0.00000, 1150.25, 957.846, 1110.27
306, 0.00000, 1190.66, 1001.87, 1145.71
307, 0.00000, 1213.91, 1041.08, 1177.04
308, 0.00000, 1228.44, 1045.66, 1177.5
309, 0.00000, 1246.4, 1060.33, 1175.16
310, 0.00000, 1235.52, 1054.79, 1175.07
311, 0.00000, 1189.11, 1013.47, 1133.61
312, 0.00000, 1117.08, 958.328, 1049.86
313, 0.00000, 1052.32, 918.267, 1009.81
314, 0.00000, 1022.96, 888.233, 981.107
315, 0.00000, 1015.57, 888.784, 965.728
316, 0.00000, 991.88, 875.637, 945.796
317, 0.00000, 1008.95, 906.911, 965.449
318, 0.00000, 1071.04, 939.757, 1034.76
319, 0.00000, 1136.28, 1005.34, 1101.89
320, 0.00000, 1221.79, 1058.51, 1169.09
321, 0.00000, 1231.44, 1058.86, 1180.87
322, 0.00000, 1266.43, 1068.06, 1197.67
323, 0.00000, 1271.3, 1076.07, 1199.72
324, 0.00000, 1212.16, 1010.01, 1141.36
325, 0.00000, 1193.89, 995.119, 1136.89
326, 0.00000, 1200.13, 987.912, 1127.83
327, 0.00000, 1228.25, 1008.43, 1156.3
328, 0.00000, 1209.76, 981.714, 1143.19
329, 0.00000, 1198.58, 953, 1110.46
330, 0.00000, 1178.74, 972.904, 1133.61
331, 0.00000, 1237.63, 1044.89, 1190.5
332, 0.00000, 1192.95, 985.896, 1126.73
333, 0.00000, 1216.8, 999.843, 1131.31
334, 0.00000, 1113.88, 939.747, 1064.87
335, 0.00000, 1117.78, 963.058, 1082.36
336, 0.00000, 1099.45, 945.984, 1049.65
337, 0.00000, 1070.63, 917.951, 1028.57
338, 0.00000, 1075.08, 932.835, 1018.95
339, 0.00000, 1068.56, 928.103, 1004.04
340, 0.00000, 1047.17, 913.747, 993.434
341, 0.00000, 1036.74, 912.173, 991.772
342, 0.00000, 1099.41, 961.411, 1050.48
343, 0.00000, 1177.14, 1055.79, 1143.68
344, 0.00000, 1294.59, 1135.78, 1241.15
345, 0.00000, 1291.56, 1131.98, 1274.24
346, 0.00000, 1274.37, 1083.4, 1219.56
347, 0.00000, 1264.74, 1074.64, 1204.59
348, 0.00000, 1244.38, 1044.61, 1186.11
349, 0.00000, 1241.81, 1045.67, 1197.09
350, 0.00000, 1260, 1037.53, 1202.17
351, 0.00000, 1254.54, 1034.49, 1211.3
352, 0.00000, 1255.25, 1031.25, 1189.26
353, 0.00000, 1244.83, 1029.85, 1183.83
354, 0.00000, 1238.95, 998.011, 1165.11
355, 0.00000, 1220.37, 1002.25, 1167.19
356, 0.00000, 1222.31, 1013.31, 1165.1
357, 0.00000, 1223.85, 1028.08, 1157.93
358, 0.00000, 1244.82, 1060.35, 1190.89
359, 0.00000, 1262.97, 1070.19, 1188.93
360, 0.00000, 1266.4, 1091.2, 1219.4
361, 0.00000, 1267.53, 1100.76, 1211.11
362, 0.00000, 1233.42, 1097.55, 1199.29
363, 0.00000, 1241.48, 1104.66, 1193
364, 0.00000, 1239.2, 1118.15, 1209.73
365, 0.00000, 1247.87, 1118.43, 1219.93
366, 0.00000, 1245.3, 1115.5, 1221.43
367, 0.00000, 1280.57, 1128.58, 1242.93
368, 0.00000, 1270.43, 1116.48, 1234.95
369, 0.00000, 1268.61, 1092.25, 1193.39
370, 0.00000, 1263.49, 1080.09, 1221.73
371, 0.00000, 1248.08, 1036.96, 1186.68
372, 0.00000, 1245.87, 1040.93, 1185.83
373, 0.00000, 1237.26, 1009.07, 1169
374, 0.00000, 1227.31, 1005.51, 1154.07
375, 0.00000, 1215.63, 980.113, 1144.04
376, 0.00000, 1221.23, 995.28, 1151.8
377, 0.00000, 1238.77, 1007.99, 1141.04
378, 0.00000, 1232.53, 1012.21, 1179.63
379, 0.00000, 1225.8, 1019.9, 1176.74
380, 0.00000, 1248.97, 1047.03, 1187.36
381, 0.00000, 1226.73, 1014.3, 1151.63
382, 0.00000, 1236.72, 1046.55, 1171.68
383, 0.00000, 1257.07, 1065.87, 1202.57
384, 0.00000, 1272.79, 1102.05, 1229.04
385, 0.00000, 1272.84, 1102.01, 1206.76
386, 0.00000, 1232.27, 1085.18, 1186.3
387, 0.00000, 1251.84, 1105.51, 1208
388, 0.00000, 1237.26, 1094.21, 1190.31
389, 0.00000, 1242.88, 1099.62, 1199.56
390, 0.00000, 1252.68, 1109.34, 1216.38
391, 0.00000, 1251.51, 1118.27, 1215.95
392, 0.00000, 1260.5, 1103.69, 1213.9
393, 0.00000, 1257.21, 1090.53, 1201.21
394, 0.00000, 1297.4, 1105.03, 1230.76
395, 0.00000, 1272.68, 1064.99, 1209.41
396, 0.00000, 1261.52, 1050.57, 1213.48
397, 0.00000, 1280.4, 1046.16, 1211.11
398, 0.00000, 1267.46, 1044.66, 1194.77
399, 0.00000, 1287.95, 1050.94, 1231.89
400, 0.00000, 1269.31, 1031.4, 1198.66
401, 0.00000, 1282.01, 1028.45, 1210.38
402, 0.00000, 1259.62, 1031.18, 1210.81
403, 0.00000, 1280.77, 1049.37, 1213.97
404, 0.00000, 1267.61, 1042.73, 1213.3
405, 0.00000, 1267.83, 1056.71, 1209.53
406, 0.00000, 1248.39, 1021.12, 1159.62
407, 0.00000, 1237.86, 1039.81, 1155.69
408, 0.00000, 1238.84, 1046.6, 1161.24
409, 0.00000, 1259.26, 1086.91, 1201.79
410, 0.00000, 1260.72, 1083.19, 1198.34
411, 0.00000, 1277.71, 1116.34, 1220.21
412, 0.00000, 1291.27, 1139.62, 1250.54
413, 0.00000, 1273.14, 1140.23, 1236.6
414, 0.00000, 1294.88, 1145.63, 1267.76
415, 0.00000, 1289.36, 1135.87, 1246.42
416, 0.00000, 1286.91, 1116.14, 1237.82
417, 0.00000, 1261.35, 1074.36, 1197.34
418, 0.00000, 1256.96, 1064.5, 1215.59
419, 0.00000, 1246.58, 1041.2, 1197.66
420, 0.00000, 1242.55, 1032.75, 1176.72
421, 0.00000, 1253.74, 1025.17, 1182
422, 0.00000, 1242.05, 1012.85, 1163.78
423, 0.00000, 1246.5, 1007.91, 1172.16
424, 0.00000, 1243.43, 992.805, 1152.6
425, 0.00000, 1251.04, 1005.02, 1184.03
426, 0.00000, 1267, 1036.61, 1190.59
427, 0.00000, 1262.25, 1045.58, 1193.64
428, 0.00000, 1244.53, 1026.2, 1182.97
429, 0.00000, 1258.43, 1054.36, 1186.41
430, 0.00000, 1247.81, 1041.01, 1169.04
431, 0.00000, 1256.47, 1073.64, 1196.54
432, 0.00000, 1267.75, 1084.41, 1201.43
433, 0.00000, 1281.41, 1087.77, 1212.25
434, 0.00000, 1281.07, 1115.81, 1237.05
435, 0.00000, 1287.47, 1146.03, 1253.65
436, 0.00000, 1292.4, 1153.31, 1254.98
437, 0.00000, 1300.85, 1148.57, 1253.45
438, 0.00000, 1306.9, 1164.63, 1268.96
439, 0.00000, 1289.46, 1130.48, 1232.48
440, 0.00000, 1282.46, 1126.51, 1244.37
441, 0.00000, 1269.61, 1086.64, 1204.36
442, 0.00000, 1254.55, 1041.32, 1180.99
443, 0.00000, 1282.11, 1064.98, 1215.32
444, 0.00000, 1298.57, 1073.8, 1226.3
445, 0.00000, 1289.22, 1058.9, 1208.33
446, 0.00000, 1290.54, 1049.04, 1199.59
447, 0.00000, 1290.81, 1045.3, 1209.54
448, 0.00000, 1250.84, 1014.31, 1180.18
449, 0.00000, 1226.86, 996.345, 1152.13
450, 0.00000, 1223.35, 996.603, 1167.68
451, 0.00000, 1287.77, 1079.22, 1244.05
452, 0.00000, 1272.16, 1060.15, 1222.54
453, 0.00000, 1285.07, 1060.85, 1200.83
454, 0.00000, 1278.52, 1081.25, 1215.45
455, 0.00000, 1243.76, 1029.22, 1164.45
456, 0.00000, 1246.1, 1065.23, 1184.38
457, 0.00000, 1264.51, 1085.16, 1209.75
458, 0.00000, 1254.07, 1082.18, 1195.93
459, 0.00000, 1264.6, 1114.25, 1212.46
460, 0.00000, 1275.63, 1119.11, 1229.97
461, 0.00000, 1269.01, 1111.9, 1221.88
462, 0.00000, 1279.55, 1131.29, 1250.43
463, 0.00000, 1269.89, 1120.28, 1240.06
464, 0.00000, 1250.15, 1085.99, 1209.81
465, 0.00000, 1283.99, 1086.4, 1224.37
466, 0.00000, 1290.57, 1075.29, 1228.43
467, 0.00000, 1284.49, 1089.74, 1267.21
468, 0.00000, 1281.98, 1069.81, 1239.69
469, 0.00000, 1272.11, 1058.74, 1217.84
470, 0.00000, 1262.74, 1034.78, 1210.12
471, 0.00000, 1268.43, 1056.17, 1240.2
472, 0.00000, 1272.35, 1053.14, 1228.35
473, 0.00000, 1278.86, 1057.39, 1226.04
474, 0.00000, 1278.81, 1053.52, 1228.2
475, 0.00000, 1261.36, 1025.92, 1209.07
476, 0.00000, 1243.04, 1033.93, 1200.3
477, 0.00000, 1261.51, 1047.99, 1213.67
478, 0.00000, 1243.42, 1020.83, 1157.05
479, 0.00000, 1253.97, 1044.66, 1181.7
480, 0.00000, 1266.24, 1062.91, 1195.56
481, 0.00000, 1226.66, 1043.4, 1169.37
482, 0.00000, 1252.07, 1095.54, 1203.48
483, 0.00000, 1255.21, 1092.65, 1200.27
484, 0.00000, 1260.69, 1091.63, 1196.23
485, 0.00000, 1239.89, 1084.05, 1192.92
486, 0.00000, 1255.9, 1082.61, 1219.15
487, 0.00000, 1292.09, 1117.73, 1265.08
488, 0.00000, 1289.14, 1093.79, 1222.42
489, 0.00000, 1285.29, 1067, 1211.76
490, 0.00000, 1261.31, 1031.61, 1218.65
491, 0.00000, 1244.14, 1006.32, 1160.57
492, 0.00000, 1239.64, 999.279, 1173.83
493, 0.00000, 1242.74, 994.641, 1156.03
