hour, t(sec), speed,dspeed,mass,dmass,pshaft,dpshaft,pterm,dpterm,damp,ddamp,theta,dtheta,
0, 0.00100, -8.08477E-010, -1.61695E-006, 4.12211E007, 0, 1.998E009, 0, 1.998E009, 0, 0, 0, 0.729072, -8.99612E-010
0, 0.00200, -2.4254E-009, -1.61688E-006, 4.12211E007, 0, 1.998E009, 0, 1.998E009, 0, 0, 0, 0.729072, -2.42542E-009
0, 0.00300, -4.04219E-009, -1.61671E-006, 4.12211E007, 0, 1.998E009, 0, 1.998E009, 0, 0, 0, 0.729072, -4.04226E-009
0, 0.00400, -5.65877E-009, -1.61644E-006, 4.12211E007, 0, 1.998E009, 0, 1.998E009, 0, 0, 0, 0.729072, -5.65888E-009
0, 0.00500, -7.27504E-009, -1.61609E-006, 4.12211E007, 0, 1.998E009, 0, 1.998E009, 0, 0, 0, 0.729072, -7.27519E-009
0, 0.00600, -8.89091E-009, -1.61566E-006, 4.12211E007, 0, 1.998E009, 0, 1.998E009, 0, 0, 0, 0.729072, -8.89111E-009
0, 0.00700, -1.05063E-008, -1.61513E-006, 4.12211E007, 0, 1.998E009, 0, 1.998E009, 0, 0, 0, 0.729072, -1.05065E-008
0, 0.00800, -1.21211E-008, -1.61452E-006, 4.12211E007, 0, 1.998E009, 0, 1.998E009, 0, 0, 0, 0.729072, -1.21214E-008
0, 0.00900, -1.37353E-008, -1.61381E-006, 4.12211E007, 0, 1.998E009, 0, 1.998E009, 0, 0, 0, 0.729072, -1.37356E-008
0, 0.01000, -1.53487E-008, -1.61302E-006, 4.12211E007, 0, 1.998E009, 0, 1.998E009, 0, 0, 0, 0.729072, -1.53491E-008
0, 0.01100, -1.69613E-008, -1.61215E-006, 4.12211E007, 0, 1.998E009, 0, 1.998E009, 0, 0, 0, 0.729072, -1.69617E-008
0, 0.01200, -1.8573E-008, -1.61118E-006, 4.12211E007, 0, 1.998E009, 0, 1.998E009, 0, 0, 0, 0.729072, -1.85734E-008
0, 0.01300, -2.01836E-008, -1.61013E-006, 4.12211E007, 0, 1.998E009, 0, 1.998E009, 0, 0, 0, 0.729072, -2.01841E-008
0, 0.01400, -2.17932E-008, -1.60899E-006, 4.12211E007, 0, 1.998E009, 0, 1.998E009, 0, 0, 0, 0.729072, -2.17937E-008
0, 0.01500, -2.34016E-008, -1.60777E-006, 4.12211E007, 0, 1.998E009, 0, 1.998E009, 0, 0, 0, 0.729072, -2.34022E-008
0, 0.01600, -2.50087E-008, -1.60645E-006, 4.12211E007, 0, 1.998E009, 0, 1.998E009, 0, 0, 0, 0.729072, -2.50093E-008
0, 0.01700, -2.66144E-008, -1.60505E-006, 4.12211E007, 0, 1.998E009, 0, 1.998E009, 0, 0, 0, 0.729072, -2.66151E-008
0, 0.01800, -2.82187E-008, -1.60356E-006, 4.12211E007, 0, 1.998E009, 0, 1.998E009, 0, 0, 0, 0.729072, -2.82195E-008
0, 0.01900, -2.98215E-008, -1.60199E-006, 4.12211E007, 0, 1.998E009, 0, 1.998E009, 0, 0, 0, 0.729072, -2.98223E-008
0, 0.02000, -3.14227E-008, -1.60033E-006, 4.12211E007, 0, 1.998E009, 0, 1.998E009, 0, 0, 0, 0.729072, -3.14235E-008
0, 0.02100, -3.30221E-008, -1.59858E-006, 4.12211E007, 0, 1.998E009, 0, 1.998E009, 0, 0, 0, 0.729072, -3.3023E-008
0, 0.02200, -3.46198E-008, -1.59674E-006, 4.12211E007, 0, 1.998E009, 0, 1.998E009, 0, 0, 0, 0.729072, -3.46207E-008
0, 0.02300, -3.62156E-008, -1.59482E-006, 4.12211E007, 0, 1.998E009, 0, 1.998E009, 0, 0, 0, 0.729072, -3.62165E-008
0, 0.02400, -3.78094E-008, -1.59281E-006, 4.12211E007, 0, 1.998E009, 0, 1.998E009, 0, 0, 0, 0.729072, -3.78104E-008
0, 0.02500, -3.94012E-008, -1.59072E-006, 4.12211E007, 0, 1.998E009, 0, 1.998E009, 0, 0, 0, 0.729072, -3.94022E-008
0, 0.02600, -4.09908E-008, -1.58854E-006, 4.12211E007, 0, 1.998E009, 0, 1.998E009, 0, 0, 0, 0.729072, -4.09918E-008
0, 0.02700, -4.25782E-008, -1.58627E-006, 4.12211E007, 0, 1.998E009, 0, 1.998E009, 0, 0, 0, 0.729072, -4.25793E-008
0, 0.02800, -4.41633E-008, -1.58392E-006, 4.12211E007, 0, 1.998E009, 0, 1.998E009, 0, 0, 0, 0.729072, -4.41644E-008
0, 0.02900, -4.5746E-008, -1.58148E-006, 4.12211E007, 0, 1.998E009, 0, 1.998E009, 0, 0, 0, 0.729072, -4.57472E-008
0, 0.03000, -4.73262E-008, -1.57895E-006, 4.12211E007, 0, 1.998E009, 0, 1.998E009, 0, 0, 0, 0.729072, -4.73274E-008
0, 0.03100, -4.89038E-008, -1.57634E-006, 4.12211E007, 0, 1.998E009, 0, 1.998E009, 0, 0, 0, 0.729072, -4.89051E-008
0, 0.03200, -5.04788E-008, -1.57364E-006, 4.12211E007, 0, 1.998E009, 0, 1.998E009, 0, 0, 0, 0.729072, -5.04802E-008
0, 0.03300, -5.20511E-008, -1.57086E-006, 4.12211E007, 0, 1.998E009, 0, 1.998E009, 0, 0, 0, 0.729072, -5.20525E-008
0, 0.03400, -5.36205E-008, -1.568E-006, 4.12211E007, 0, 1.998E009, 0, 1.998E009, 0, 0, 0, 0.729072, -5.36219E-008
0, 0.03500, -5.5187E-008, -1.56504E-006, 4.12211E007, 0, 1.998E009, 0, 1.998E009, 0, 0, 0, 0.729072, -5.51885E-008
0, 0.03600, -5.67506E-008, -1.56201E-006, 4.12211E007, 0, 1.998E009, 0, 1.998E009, 0, 0, 0, 0.729072, -5.67521E-008
0, 0.03700, -5.8311E-008, -1.55888E-006, 4.12211E007, 0, 1.998E009, 0, 1.998E009, 0, 0, 0, 0.729072, -5.83125E-008
0, 0.03800, -5.98683E-008, -1.55568E-006, 4.12211E007, 0, 1.998E009, 0, 1.998E009, 0, 0, 0, 0.729072, -5.98699E-008
0, 0.03900, -6.14223E-008, -1.55239E-006, 4.12211E007, 0, 1.998E009, 0, 1.998E009, 0, 0, 0, 0.729072, -6.14239E-008
0, 0.04000, -6.2973E-008, -1.54901E-006, 4.12211E007, 0, 1.998E009, 0, 1.998E009, 0, 0, 0, 0.729072, -6.29747E-008
0, 0.04100, -6.45203E-008, -1.54555E-006, 4.12211E007, 0, 1.998E009, 0, 1.998E009, 0, 0, 0, 0.729072, -6.4522E-008
0, 0.04200, -6.60641E-008, -1.54201E-006, 4.12211E007, 0, 1.998E009, 0, 1.998E009, 0, 0, 0, 0.729072, -6.60658E-008
0, 0.04300, -6.76043E-008, -1.53838E-006, 4.12211E007, 0, 1.998E009, 0, 1.998E009, 0, 0, 0, 0.729072, -6.76061E-008
0, 0.04400, -6.91408E-008, -1.53467E-006, 4.12211E007, 0, 1.998E009, 0, 1.998E009, 0, 0, 0, 0.729072, -6.91426E-008
0, 0.04500, -7.06736E-008, -1.53088E-006, 4.12211E007, 0, 1.998E009, 0, 1.998E009, 0, 0, 0, 0.729072, -7.06754E-008
0, 0.04600, -7.22025E-008, -1.527E-006, 4.12211E007, 0, 1.998E009, 0, 1.998E009, 0, 0, 0, 0.729072, -7.22044E-008
0, 0.04700, -7.37275E-008, -1.52304E-006, 4.12211E007, 0, 1.998E009, 0, 1.998E009, 0, 0, 0, 0.729072, -7.37295E-008
0, 0.04800, -7.52486E-008, -1.519E-006, 4.12211E007, 0, 1.998E009, 0, 1.998E009, 0, 0, 0, 0.729072, -7.52506E-008
0, 0.04900, -7.67655E-008, -1.51487E-006, 4.12211E007, 0, 1.998E009, 0, 1.998E009, 0, 0, 0, 0.729072, -7.67675E-008
0, 0.05000, -7.82783E-008, -1.51067E-006, 4.12211E007, 0, 1.998E009, 0, 1.998E009, 0, 0, 0, 0.729072, -7.82803E-008
0, 0.05100, -7.97868E-008, -1.50638E-006, 4.12211E007, 0, 1.998E009, 0, 1.998E009, 0, 0, 0, 0.729071, -7.97889E-008
0, 0.05200, -8.1291E-008, -1.50201E-006, 4.12211E007, 0, 1.998E009, 0, 1.998E009, 0, 0, 0, 0.729071, -8.12931E-008
0, 0.05300, -8.27908E-008, -1.49756E-006, 4.12211E007, 0, 1.998E009, 0, 1.998E009, 0, 0, 0, 0.729071, -8.2793E-008
0, 0.05400, -8.42861E-008, -1.49302E-006, 4.12211E007, 0, 1.998E009, 0, 1.998E009, 0, 0, 0, 0.729071, -8.42883E-008
0, 0.05500, -8.57768E-008, -1.48841E-006, 4.12211E007, 0, 1.998E009, 0, 1.998E009, 0, 0, 0, 0.729071, -8.57791E-008
0, 0.05600, -8.72628E-008, -1.48371E-006, 4.12211E007, 0, 1.998E009, 0, 1.998E009, 0, 0, 0, 0.729071, -8.72652E-008
0, 0.05700, -8.87442E-008, -1.47894E-006, 4.12211E007, 0, 1.998E009, 0, 1.998E009, 0, 0, 0, 0.729071, -8.87465E-008
0, 0.05800, -9.02207E-008, -1.47408E-006, 4.12211E007, 0, 1.998E009, 0, 1.998E009, 0, 0, 0, 0.729071, -9.02231E-008
0, 0.05900, -9.16923E-008, -1.46915E-006, 4.12211E007, 0, 1.998E009, 0, 1.998E009, 0, 0, 0, 0.729071, -9.16947E-008
0, 0.06000, -9.31589E-008, -1.46413E-006, 4.12211E007, 0, 1.998E009, 0, 1.998E009, 0, 0, 0, 0.729071, -9.31614E-008
0, 0.06100, -9.46205E-008, -1.45904E-006, 4.12211E007, 0, 1.998E009, 0, 1.998E009, 0, 0, 0, 0.729071, -9.4623E-008
0, 0.06200, -9.6077E-008, -1.45386E-006, 4.12211E007, 0, 1.998E009, 0, 1.998E009, 0, 0, 0, 0.729071, -9.60795E-008
0, 0.06300, -9.75282E-008, -1.44861E-006, 4.12211E007, 0, 1.998E009, 0, 1.998E009, 0, 0, 0, 0.729071, -9.75308E-008
0, 0.06400, -9.89741E-008, -1.44328E-006, 4.12211E007, 0, 1.998E009, 0, 1.998E009, 0, 0, 0, 0.729071, -9.89768E-008
0, 0.06500, -1.00415E-007, -1.43787E-006, 4.12211E007, 0, 1.998E009, 0, 1.998E009, 0, 0, 0, 0.729071, -1.00417E-007
0, 0.06600, -1.0185E-007, -1.43238E-006, 4.12211E007, 0, 1.998E009, 0, 1.998E009, 0, 0, 0, 0.729071, -1.01853E-007
0, 0.06700, -1.03279E-007, -1.42681E-006, 4.12211E007, 0, 1.998E009, 0, 1.998E009, 0, 0, 0, 0.729071, -1.03282E-007
0, 0.06800, -1.04703E-007, -1.42117E-006, 4.12211E007, 0, 1.998E009, 0, 1.998E009, 0, 0, 0, 0.729071, -1.04706E-007
0, 0.06900, -1.06122E-007, -1.41545E-006, 4.12211E007, 0, 1.998E009, 0, 1.998E009, 0, 0, 0, 0.729071, -1.06125E-007
0, 0.07000, -1.07534E-007, -1.40965E-006, 4.12211E007, 0, 1.998E009, 0, 1.998E009, 0, 0, 0, 0.729071, -1.07537E-007
0, 0.07100, -1.08941E-007, -1.40378E-006, 4.12211E007, 0, 1.998E009, 0, 1.998E009, 0, 0, 0, 0.729071, -1.08944E-007
0, 0.07200, -1.10342E-007, -1.39783E-006, 4.12211E007, 0, 1.998E009, 0, 1.998E009, 0, 0, 0, 0.729071, -1.10345E-007
0, 0.07300, -1.11737E-007, -1.3918E-006, 4.12211E007, 0, 1.998E009, 0, 1.998E009, 0, 0, 0, 0.729071, -1.1174E-007
0, 0.07400, -1.13125E-007, -1.3857E-006, 4.12211E007, 0, 1.998E009, 0, 1.998E009, 0, 0, 0, 0.729071, -1.13128E-007
0, 0.07500, -1.14508E-007, -1.37953E-006, 4.12211E007, 0, 1.998E009, 0, 1.998E009, 0, 0, 0, 0.729071, -1.14511E-007
0, 0.07600, -1.15884E-007, -1.37328E-006, 4.12211E007, 0, 1.998E009, 0, 1.998E009, 0, 0, 0, 0.729071, -1.15887E-007
0, 0.07700, -1.17254E-007, -1.36695E-006, 4.12211E007, 0, 1.998E009, 0, 1.998E009, 0, 0, 0, 0.729071, -1.17258E-007
0, 0.07800, -1.18618E-007, -1.36055E-006, 4.12211E007, 0, 1.998E009, 0, 1.998E009, 0, 0, 0, 0.729071, -1.18621E-007
0, 0.07900, -1.19976E-007, -1.35408E-006, 4.12211E007, 0, 1.998E009, 0, 1.998E009, 0, 0, 0, 0.729071, -1.19979E-007
0, 0.08000, -1.21326E-007, -1.34753E-006, 4.12211E007, 0, 1.998E009, 0, 1.998E009, 0, 0, 0, 0.729071, -1.2133E-007
0, 0.08100, -1.22671E-007, -1.34091E-006, 4.12211E007, 0, 1.998E009, 0, 1.998E009, 0, 0, 0, 0.729071, -1.22674E-007
0, 0.08200, -1.24008E-007, -1.33421E-006, 4.12211E007, 0, 1.998E009, 0, 1.998E009, 0, 0, 0, 0.729071, -1.24011E-007
0, 0.08300, -1.25339E-007, -1.32745E-006, 4.12211E007, 0, 1.998E009, 0, 1.998E009, 0, 0, 0, 0.729071, -1.25342E-007
0, 0.08400, -1.26663E-007, -1.32061E-006, 4.12211E007, 0, 1.998E009, 0, 1.998E009, 0, 0, 0, 0.729071, -1.26666E-007
0, 0.08500, -1.2798E-007, -1.3137E-006, 4.12211E007, 0, 1.998E009, 0, 1.998E009, 0, 0, 0, 0.729071, -1.27984E-007
0, 0.08600, -1.2929E-007, -1.30672E-006, 4.12211E007, 0, 1.998E009, 0, 1.998E009, 0, 0, 0, 0.729071, -1.29294E-007
0, 0.08700, -1.30594E-007, -1.29967E-006, 4.12211E007, 0, 1.998E009, 0, 1.998E009, 0, 0, 0, 0.729071, -1.30597E-007
0, 0.08800, -1.3189E-007, -1.29255E-006, 4.12211E007, 0, 1.998E009, 0, 1.998E009, 0, 0, 0, 0.729071, -1.31893E-007
0, 0.08900, -1.33179E-007, -1.28536E-006, 4.12211E007, 0, 1.998E009, 0, 1.998E009, 0, 0, 0, 0.729071, -1.33182E-007
0, 0.09000, -1.3446E-007, -1.27809E-006, 4.12211E007, 0, 1.998E009, 0, 1.998E009, 0, 0, 0, 0.729071, -1.34464E-007
0, 0.09100, -1.35735E-007, -1.27076E-006, 4.12211E007, 0, 1.998E009, 0, 1.998E009, 0, 0, 0, 0.729071, -1.35738E-007
0, 0.09200, -1.37002E-007, -1.26336E-006, 4.12211E007, 0, 1.998E009, 0, 1.998E009, 0, 0, 0, 0.729071, -1.37006E-007
0, 0.09300, -1.38261E-007, -1.25589E-006, 4.12211E007, 0, 1.998E009, 0, 1.998E009, 0, 0, 0, 0.729071, -1.38265E-007
0, 0.09400, -1.39514E-007, -1.24836E-006, 4.12211E007, 0, 1.998E009, 0, 1.998E009, 0, 0, 0, 0.729071, -1.39517E-007
0, 0.09500, -1.40758E-007, -1.24075E-006, 4.12211E007, 0, 1.998E009, 0, 1.998E009, 0, 0, 0, 0.729071, -1.40762E-007
0, 0.09600, -1.41995E-007, -1.23308E-006, 4.12211E007, 0, 1.998E009, 0, 1.998E009, 0, 0, 0, 0.729071, -1.41999E-007
0, 0.09700, -1.43224E-007, -1.22534E-006, 4.12211E007, 0, 1.998E009, 0, 1.998E009, 0, 0, 0, 0.729071, -1.43228E-007
0, 0.09800, -1.44446E-007, -1.21754E-006, 4.12211E007, 0, 1.998E009, 0, 1.998E009, 0, 0, 0, 0.729071, -1.4445E-007
0, 0.09900, -1.45659E-007, -1.20967E-006, 4.12211E007, 0, 1.998E009, 0, 1.998E009, 0, 0, 0, 0.729071, -1.45663E-007
0, 0.10000, -1.46865E-007, -1.20173E-006, 4.12211E007, 0, 1.998E009, 0, 1.998E009, 0, 0, 0, 0.729071, -1.46869E-007
0, 0.10100, -1.48063E-007, -1.19373E-006, 4.12211E007, 0, 1.998E009, 0, 1.998E009, 0, 0, 0, 0.729071, -1.48067E-007
0, 0.10200, -1.49252E-007, -1.18566E-006, 4.12211E007, 0, 1.998E009, 0, 1.998E009, 0, 0, 0, 0.729071, -1.49256E-007
0, 0.10300, -1.50434E-007, -1.17753E-006, 4.12211E007, 0, 1.998E009, 0, 1.998E009, 0, 0, 0, 0.729071, -1.50438E-007
0, 0.10400, -1.51607E-007, -1.16933E-006, 4.12211E007, 0, 1.998E009, 0, 1.998E009, 0, 0, 0, 0.729071, -1.51612E-007
0, 0.10500, -1.52773E-007, -1.16107E-006, 4.12211E007, 0, 1.998E009, 0, 1.998E009, 0, 0, 0, 0.729071, -1.52777E-007
0, 0.10600, -1.5393E-007, -1.15275E-006, 4.12211E007, 0, 1.998E009, 0, 1.998E009, 0, 0, 0, 0.729071, -1.53934E-007
0, 0.10700, -1.55078E-007, -1.14437E-006, 4.12211E007, 0, 1.998E009, 0, 1.998E009, 0, 0, 0, 0.729071, -1.55082E-007
0, 0.10800, -1.56218E-007, -1.13592E-006, 4.12211E007, 0, 1.998E009, 0, 1.998E009, 0, 0, 0, 0.729071, -1.56222E-007
0, 0.10900, -1.5735E-007, -1.12741E-006, 4.12211E007, 0, 1.998E009, 0, 1.998E009, 0, 0, 0, 0.729071, -1.57354E-007
0, 0.11000, -1.58473E-007, -1.11884E-006, 4.12211E007, 0, 1.998E009, 0, 1.998E009, 0, 0, 0, 0.729071, -1.58477E-007
0, 0.11100, -1.59588E-007, -1.11021E-006, 4.12211E007, 0, 1.998E009, 0, 1.998E009, 0, 0, 0, 0.729071, -1.59592E-007
0, 0.11200, -1.60693E-007, -1.10152E-006, 4.12211E007, 0, 1.998E009, 0, 1.998E009, 0, 0, 0, 0.729071, -1.60698E-007
0, 0.11300, -1.61791E-007, -1.09277E-006, 4.12211E007, 0, 1.998E009, 0, 1.998E009, 0, 0, 0, 0.729071, -1.61795E-007
0, 0.11400, -1.62879E-007, -1.08396E-006, 4.12211E007, 0, 1.998E009, 0, 1.998E009, 0, 0, 0, 0.729071, -1.62883E-007
0, 0.11500, -1.63959E-007, -1.0751E-006, 4.12211E007, 0, 1.998E009, 0, 1.998E009, 0, 0, 0, 0.729071, -1.63963E-007
0, 0.11600, -1.65029E-007, -1.06617E-006, 4.12211E007, 0, 1.998E009, 0, 1.998E009, 0, 0, 0, 0.729071, -1.65034E-007
0, 0.11700, -1.66091E-007, -1.05719E-006, 4.12211E007, 0, 1.998E009, 0, 1.998E009, 0, 0, 0, 0.729071, -1.66095E-007
0, 0.11800, -1.67144E-007, -1.04814E-006, 4.12211E007, 0, 1.998E009, 0, 1.998E009, 0, 0, 0, 0.729071, -1.67148E-007
0, 0.11900, -1.68187E-007, -1.03905E-006, 4.12211E007, 0, 1.998E009, 0, 1.998E009, 0, 0, 0, 0.729071, -1.68192E-007
0, 0.12000, -1.69222E-007, -1.02989E-006, 4.12211E007, 0, 1.998E009, 0, 1.998E009, 0, 0, 0, 0.729071, -1.69226E-007
0, 0.12100, -1.70247E-007, -1.02068E-006, 4.12211E007, 0, 1.998E009, 0, 1.998E009, 0, 0, 0, 0.729071, -1.70251E-007
0, 0.12200, -1.71263E-007, -1.01141E-006, 4.12211E007, 0, 1.998E009, 0, 1.998E009, 0, 0, 0, 0.729071, -1.71268E-007
0, 0.12300, -1.7227E-007, -1.00209E-006, 4.12211E007, 0, 1.998E009, 0, 1.998E009, 0, 0, 0, 0.729071, -1.72274E-007
0, 0.12400, -1.73267E-007, -9.92718E-007, 4.12211E007, 0, 1.998E009, 0, 1.998E009, 0, 0, 0, 0.729071, -1.73272E-007
0, 0.12500, -1.74255E-007, -9.83288E-007, 4.12211E007, 0, 1.998E009, 0, 1.998E009, 0, 0, 0, 0.729071, -1.7426E-007
0, 0.12600, -1.75234E-007, -9.73806E-007, 4.12211E007, 0, 1.998E009, 0, 1.998E009, 0, 0, 0, 0.729071, -1.75238E-007
0, 0.12700, -1.76203E-007, -9.6427E-007, 4.12211E007, 0, 1.998E009, 0, 1.998E009, 0, 0, 0, 0.729071, -1.76207E-007
0, 0.12800, -1.77162E-007, -9.54682E-007, 4.12211E007, 0, 1.998E009, 0, 1.998E009, 0, 0, 0, 0.729071, -1.77167E-007
0, 0.12900, -1.78112E-007, -9.45043E-007, 4.12211E007, 0, 1.998E009, 0, 1.998E009, 0, 0, 0, 0.729071, -1.78117E-007
0, 0.13000, -1.79052E-007, -9.35352E-007, 4.12211E007, 0, 1.998E009, 0, 1.998E009, 0, 0, 0, 0.729071, -1.79057E-007
0, 0.13100, -1.79983E-007, -9.2561E-007, 4.12211E007, 0, 1.998E009, 0, 1.998E009, 0, 0, 0, 0.729071, -1.79988E-007
0, 0.13200, -1.80903E-007, -9.15818E-007, 4.12211E007, 0, 1.998E009, 0, 1.998E009, 0, 0, 0, 0.729071, -1.80908E-007
0, 0.13300, -1.81814E-007, -9.05976E-007, 4.12211E007, 0, 1.998E009, 0, 1.998E009, 0, 0, 0, 0.729071, -1.81819E-007
0, 0.13400, -1.82715E-007, -8.96086E-007, 4.12211E007, 0, 1.998E009, 0, 1.998E009, 0, 0, 0, 0.729071, -1.8272E-007
0, 0.13500, -1.83606E-007, -8.86146E-007, 4.12211E007, 0, 1.998E009, 0, 1.998E009, 0, 0, 0, 0.729071, -1.83611E-007
0, 0.13600, -1.84488E-007, -8.76159E-007, 4.12211E007, 0, 1.998E009, 0, 1.998E009, 0, 0, 0, 0.729071, -1.84493E-007
0, 0.13700, -1.85359E-007, -8.66124E-007, 4.12211E007, 0, 1.998E009, 0, 1.998E009, 0, 0, 0, 0.729071, -1.85364E-007
0, 0.13800, -1.8622E-007, -8.56042E-007, 4.12211E007, 0, 1.998E009, 0, 1.998E009, 0, 0, 0, 0.729071, -1.86225E-007
0, 0.13900, -1.87071E-007, -8.45913E-007, 4.12211E007, 0, 1.998E009, 0, 1.998E009, 0, 0, 0, 0.729071, -1.87076E-007
0, 0.14000, -1.87912E-007, -8.35739E-007, 4.12211E007, 0, 1.998E009, 0, 1.998E009, 0, 0, 0, 0.729071, -1.87917E-007
0, 0.14100, -1.88742E-007, -8.25519E-007, 4.12211E007, 0, 1.998E009, 0, 1.998E009, 0, 0, 0, 0.729071, -1.88747E-007
0, 0.14200, -1.89563E-007, -8.15255E-007, 4.12211E007, 0, 1.998E009, 0, 1.998E009, 0, 0, 0, 0.729071, -1.89568E-007
0, 0.14300, -1.90373E-007, -8.04946E-007, 4.12211E007, 0, 1.998E009, 0, 1.998E009, 0, 0, 0, 0.729071, -1.90378E-007
0, 0.14400, -1.91172E-007, -7.94593E-007, 4.12211E007, 0, 1.998E009, 0, 1.998E009, 0, 0, 0, 0.729071, -1.91178E-007
0, 0.14500, -1.91962E-007, -7.84198E-007, 4.12211E007, 0, 1.998E009, 0, 1.998E009, 0, 0, 0, 0.729071, -1.91967E-007
0, 0.14600, -1.92741E-007, -7.7376E-007, 4.12211E007, 0, 1.998E009, 0, 1.998E009, 0, 0, 0, 0.729071, -1.92746E-007
0, 0.14700, -1.93509E-007, -7.63279E-007, 4.12211E007, 0, 1.998E009, 0, 1.998E009, 0, 0, 0, 0.729071, -1.93515E-007
0, 0.14800, -1.94267E-007, -7.52758E-007, 4.12211E007, 0, 1.998E009, 0, 1.998E009, 0, 0, 0, 0.729071, -1.94273E-007
0, 0.14900, -1.95015E-007, -7.42195E-007, 4.12211E007, 0, 1.998E009, 0, 1.998E009, 0, 0, 0, 0.729071, -1.9502E-007
0, 0.15000, -1.95752E-007, -7.31593E-007, 4.12211E007, 0, 1.998E009, 0, 1.998E009, 0, 0, 0, 0.729071, -1.95757E-007
0, 0.15100, -1.96478E-007, -7.2095E-007, 4.12211E007, 0, 1.998E009, 0, 1.998E009, 0, 0, 0, 0.729071, -1.96483E-007
0, 0.15200, -1.97194E-007, -7.10269E-007, 4.12211E007, 0, 1.998E009, 0, 1.998E009, 0, 0, 0, 0.729071, -1.97199E-007
0, 0.15300, -1.97899E-007, -6.99549E-007, 4.12211E007, 0, 1.998E009, 0, 1.998E009, 0, 0, 0, 0.729071, -1.97904E-007
0, 0.15400, -1.98593E-007, -6.88791E-007, 4.12211E007, 0, 1.998E009, 0, 1.998E009, 0, 0, 0, 0.729071, -1.98598E-007
0, 0.15500, -1.99276E-007, -6.77996E-007, 4.12211E007, 0, 1.998E009, 0, 1.998E009, 0, 0, 0, 0.729071, -1.99282E-007
0, 0.15600, -1.99949E-007, -6.67163E-007, 4.12211E007, 0, 1.998E009, 0, 1.998E009, 0, 0, 0, 0.729071, -1.99954E-007
0, 0.15700, -2.0061E-007, -6.56295E-007, 4.12211E007, 0, 1.998E009, 0, 1.998E009, 0, 0, 0, 0.729071, -2.00616E-007
0, 0.15800, -2.01261E-007, -6.45391E-007, 4.12211E007, 0, 1.998E009, 0, 1.998E009, 0, 0, 0, 0.729071, -2.01267E-007
0, 0.15900, -2.01901E-007, -6.34452E-007, 4.12211E007, 0, 1.998E009, 0, 1.998E009, 0, 0, 0, 0.729071, -2.01907E-007
0, 0.16000, -2.0253E-007, -6.23479E-007, 4.12211E007, 0, 1.998E009, 0, 1.998E009, 0, 0, 0, 0.729071, -2.02536E-007
0, 0.16100, -2.03148E-007, -6.12471E-007, 4.12211E007, 0, 1.998E009, 0, 1.998E009, 0, 0, 0, 0.729071, -2.03154E-007
0, 0.16200, -2.03755E-007, -6.01431E-007, 4.12211E007, 0, 1.998E009, 0, 1.998E009, 0, 0, 0, 0.729071, -2.03761E-007
0, 0.16300, -2.04351E-007, -5.90358E-007, 4.12211E007, 0, 1.998E009, 0, 1.998E009, 0, 0, 0, 0.729071, -2.04357E-007
0, 0.16400, -2.04936E-007, -5.79253E-007, 4.12211E007, 0, 1.998E009, 0, 1.998E009, 0, 0, 0, 0.729071, -2.04941E-007
0, 0.16500, -2.05509E-007, -5.68116E-007, 4.12211E007, 0, 1.998E009, 0, 1.998E009, 0, 0, 0, 0.729071, -2.05515E-007
0, 0.16600, -2.06072E-007, -5.56949E-007, 4.12211E007, 0, 1.998E009, 0, 1.998E009, 0, 0, 0, 0.729071, -2.06078E-007
0, 0.16700, -2.06623E-007, -5.45751E-007, 4.12211E007, 0, 1.998E009, 0, 1.998E009, 0, 0, 0, 0.729071, -2.06629E-007
0, 0.16800, -2.07163E-007, -5.34524E-007, 4.12211E007, 0, 1.998E009, 0, 1.998E009, 0, 0, 0, 0.729071, -2.07169E-007
0, 0.16900, -2.07692E-007, -5.23267E-007, 4.12211E007, 0, 1.998E009, 0, 1.998E009, 0, 0, 0, 0.729071, -2.07698E-007
0, 0.17000, -2.0821E-007, -5.11983E-007, 4.12211E007, 0, 1.998E009, 0, 1.998E009, 0, 0, 0, 0.729071, -2.08216E-007
